                * e:\fossee\ws\sram_1bit_test\sram_1bit_test.cir
                Transient Analysis  Wed Oct 05 17:48:44  2022
--------------------------------------------------------------------------------
Index   time            d_out           din             m.x1.x1.xsc1.ms 
--------------------------------------------------------------------------------
0	0.000000e+00	9.910430e-08	0.000000e+00	1.609290e-18	
1	1.000000e-03	9.910430e-08	1.800000e-02	3.470059e-13	
2	2.000000e-03	9.910430e-08	3.600000e-02	3.412005e-13	
3	4.000000e-03	9.910430e-08	7.200000e-02	3.293896e-13	
4	8.000000e-03	9.910430e-08	1.440000e-01	3.168437e-13	
5	1.600000e-02	9.910430e-08	2.880000e-01	2.768962e-13	
6	3.200000e-02	9.910430e-08	5.760000e-01	1.937397e-13	
7	6.400000e-02	9.910428e-08	1.152000e+00	2.178729e-14	
8	1.000000e-01	9.910425e-08	1.800000e+00	2.149428e-14	
9	1.064000e-01	9.910425e-08	1.800000e+00	8.266494e-15	
10	1.192000e-01	9.910425e-08	1.800000e+00	4.573163e-15	
11	1.192000e-01	9.910426e-08	1.800000e+00	6.439685e-15	
12	1.192000e-01	5.704841e-04	1.800000e+00	2.318088e-04	
13	1.192000e-01	1.569789e-03	1.800000e+00	4.215742e-05	
14	1.192000e-01	-6.15393e-04	1.800000e+00	-4.31461e-06	
15	1.192000e-01	-9.52631e-04	1.800000e+00	1.629217e-05	
16	1.192000e-01	8.026668e-05	1.800000e+00	-6.35437e-06	
17	1.192000e-01	-2.94378e-04	1.800000e+00	1.968144e-05	
18	1.192000e-01	2.304275e-04	1.800000e+00	5.857741e-04	
19	1.192000e-01	-2.89535e-04	1.800000e+00	1.449990e-03	
20	1.192000e-01	-7.54793e-04	1.800000e+00	1.732791e-03	
21	1.192000e-01	-9.21027e-04	1.800000e+00	1.750907e-03	
22	1.192000e-01	-1.11724e-03	1.800000e+00	1.771391e-03	
23	1.192000e-01	-1.03102e-03	1.800000e+00	1.804222e-03	
24	1.192000e-01	-4.13625e-04	1.800000e+00	1.846929e-03	
25	1.192000e-01	3.245515e-04	1.800000e+00	1.870952e-03	
26	1.192000e-01	5.564978e-04	1.800000e+00	1.816774e-03	
27	1.192000e-01	1.848337e-04	1.800000e+00	1.658269e-03	
28	1.192000e-01	-1.44192e-04	1.800000e+00	1.528635e-03	
29	1.192000e-01	1.783682e-05	1.800000e+00	1.406428e-03	
30	1.192000e-01	-8.11750e-05	1.800000e+00	1.308169e-03	
31	1.192000e-01	4.152697e-05	1.800000e+00	1.204698e-03	
32	1.192000e-01	-5.19021e-05	1.800000e+00	1.112801e-03	
33	1.192000e-01	4.599469e-05	1.800000e+00	1.001276e-03	
34	1.192000e-01	-3.48218e-05	1.800000e+00	8.385548e-04	
35	1.192000e-01	6.348380e-05	1.800000e+00	7.394302e-04	
36	1.192000e-01	1.830104e-05	1.800000e+00	6.293766e-04	
37	1.192000e-01	1.955006e-04	1.800000e+00	3.886975e-04	
38	1.192000e-01	3.431400e-04	1.800000e+00	1.555441e-04	
39	1.192000e-01	7.644947e-04	1.800000e+00	1.538622e-05	
40	1.192000e-01	1.546324e-03	1.800000e+00	7.445936e-06	
41	1.192000e-01	9.012934e-04	1.800000e+00	-6.63681e-07	
42	1.192000e-01	-8.75038e-04	1.800000e+00	4.385974e-06	
43	1.192000e-01	-2.88896e-03	1.800000e+00	-1.78614e-06	
44	1.192000e-01	8.878552e-05	1.800000e+00	3.070623e-06	
45	1.192000e-01	-9.82081e-04	1.800000e+00	-2.50584e-06	
46	1.192000e-01	5.051733e-04	1.800000e+00	2.708504e-06	
47	1.192000e-01	-5.56805e-04	1.800000e+00	-2.65604e-06	
48	1.192000e-01	4.778366e-04	1.800000e+00	2.665693e-06	
49	1.192000e-01	-4.52980e-04	1.800000e+00	-2.66457e-06	
50	1.192000e-01	4.354615e-04	1.800000e+00	2.664656e-06	
51	1.192000e-01	-4.30399e-04	1.800000e+00	-2.66427e-06	
52	1.192000e-01	4.265140e-04	1.800000e+00	2.664403e-06	
53	1.192000e-01	-4.23971e-04	1.800000e+00	-2.66419e-06	
54	1.192000e-01	4.231752e-04	1.800000e+00	2.664346e-06	

Index   time            d_out           din             m.x1.x1.xsc1.ms 
--------------------------------------------------------------------------------
55	1.192001e-01	-4.22360e-04	1.800000e+00	-2.66416e-06	
56	1.192001e-01	4.220882e-04	1.800000e+00	2.664329e-06	
57	1.192002e-01	-4.21865e-04	1.800000e+00	-2.66415e-06	
58	1.192004e-01	4.217166e-04	1.800000e+00	2.664324e-06	
59	1.192006e-01	-4.21720e-04	1.800000e+00	-2.66415e-06	
60	1.192012e-01	4.216142e-04	1.800000e+00	2.664322e-06	
61	1.192023e-01	-4.21678e-04	1.800000e+00	-2.66415e-06	
62	1.192045e-01	4.215875e-04	1.800000e+00	2.664322e-06	
63	1.192088e-01	-4.21667e-04	1.800000e+00	-2.66415e-06	
64	1.192176e-01	4.215806e-04	1.800000e+00	2.664322e-06	
65	1.192350e-01	-4.21665e-04	1.800000e+00	-2.66415e-06	
66	1.192700e-01	4.215789e-04	1.800000e+00	2.664322e-06	
67	1.193399e-01	-4.21664e-04	1.800000e+00	-2.66415e-06	
68	1.194796e-01	4.219319e-04	1.800000e+00	2.664322e-06	
69	1.197591e-01	-4.21664e-04	1.800000e+00	-2.66415e-06	
70	1.203181e-01	4.219318e-04	1.800000e+00	2.664322e-06	
71	1.214361e-01	-4.21664e-04	1.800000e+00	-2.66415e-06	
72	1.236720e-01	4.219318e-04	1.800000e+00	2.664322e-06	
73	1.281439e-01	-4.21664e-04	1.800000e+00	-2.66415e-06	
74	1.370877e-01	4.215774e-04	1.800000e+00	2.664322e-06	
75	1.549754e-01	-4.21664e-04	1.800000e+00	-2.66415e-06	
76	1.907507e-01	4.215783e-04	1.800000e+00	2.664322e-06	
77	2.000000e-01	-4.21999e-04	1.800000e+00	-2.66415e-06	
78	2.071551e-01	9.910389e-08	1.800000e+00	8.525043e-11	
79	2.214652e-01	-1.46593e-07	1.800000e+00	8.525045e-11	
80	2.500854e-01	9.910377e-08	1.800000e+00	8.525043e-11	
81	3.073259e-01	9.910458e-08	1.800000e+00	8.525045e-11	
82	4.073259e-01	9.910389e-08	1.800000e+00	8.525043e-11	
83	5.073259e-01	9.910470e-08	1.800000e+00	8.525045e-11	
84	6.073259e-01	9.910389e-08	1.800000e+00	8.525043e-11	
85	7.073259e-01	9.910470e-08	1.800000e+00	8.525045e-11	
86	8.073259e-01	9.910389e-08	1.800000e+00	8.525043e-11	
87	9.073259e-01	9.910470e-08	1.800000e+00	8.525045e-11	
88	1.007326e+00	9.910389e-08	1.800000e+00	8.525043e-11	
89	1.100000e+00	9.910470e-08	1.800000e+00	8.525045e-11	
90	1.110000e+00	9.910430e-08	1.620000e+00	8.525044e-11	
91	1.130000e+00	9.910430e-08	1.260000e+00	8.525044e-11	
92	1.170000e+00	9.910430e-08	5.400000e-01	8.525044e-11	
93	1.170000e+00	9.910430e-08	5.400000e-01	8.525044e-11	
94	1.170000e+00	9.416916e-05	5.400000e-01	-1.87964e-06	
95	1.170000e+00	2.928531e-04	5.400000e-01	-1.54357e-06	
96	1.170000e+00	2.107094e-04	5.400000e-01	-2.16207e-06	
97	1.170000e+00	-2.63280e-04	5.400000e-01	-2.67577e-06	
98	1.170000e+00	-3.41847e-04	5.400000e-01	-3.02188e-06	
99	1.170000e+00	-3.00034e-05	5.400000e-01	-3.13484e-06	
100	1.170000e+00	-4.40809e-05	5.400000e-01	-3.46963e-06	
101	1.170000e+00	5.717034e-05	5.400000e-01	-4.60375e-06	
102	1.170000e+00	6.797701e-05	5.400000e-01	-3.45164e-05	
103	1.170000e+00	-4.52046e-06	5.399999e-01	-6.38972e-05	
104	1.170000e+00	-8.79065e-04	5.399999e-01	-1.58100e-05	
105	1.170000e+00	-2.78449e-03	5.399999e-01	-3.33785e-05	
106	1.170000e+00	-8.08125e-03	5.399999e-01	2.208412e-06	
107	1.170000e+00	-8.82872e-03	5.399999e-01	-1.08322e-05	
108	1.170000e+00	-1.01864e-02	5.399999e-01	-1.17343e-05	
109	1.170000e+00	-1.16414e-02	5.399999e-01	-1.28024e-05	
110	1.170000e+00	-1.21115e-02	5.399999e-01	-1.97516e-05	
111	1.170000e+00	-9.57065e-03	5.399999e-01	-5.83151e-05	
112	1.170000e+00	-2.03338e-03	5.399999e-01	-1.50019e-04	

Index   time            d_out           din             m.x1.x1.xsc1.ms 
--------------------------------------------------------------------------------
113	1.170000e+00	1.996320e-03	5.399999e-01	-1.14335e-04	
114	1.170000e+00	5.834485e-03	5.399999e-01	-6.35110e-05	
115	1.170000e+00	4.296732e-03	5.399999e-01	-2.79973e-06	
116	1.170000e+00	2.289464e-03	5.399999e-01	-1.73435e-05	
117	1.170000e+00	5.492221e-04	5.399999e-01	5.419736e-06	
118	1.170000e+00	2.773372e-04	5.399999e-01	-1.31121e-05	
119	1.170000e+00	2.989281e-05	5.399999e-01	9.929630e-06	
120	1.170000e+00	4.898050e-05	5.399999e-01	-1.09213e-05	
121	1.170000e+00	-2.17202e-05	5.399999e-01	1.068405e-05	
122	1.170000e+00	2.231770e-05	5.399999e-01	-1.07046e-05	
123	1.170000e+00	-2.01370e-05	5.399999e-01	1.070157e-05	
124	1.170000e+00	2.014692e-05	5.399999e-01	-1.07014e-05	
125	1.170000e+00	-1.94408e-05	5.399998e-01	1.070033e-05	
126	1.170000e+00	1.959330e-05	5.399997e-01	-1.07003e-05	
127	1.170000e+00	-1.92751e-05	5.399996e-01	1.070001e-05	
128	1.170000e+00	1.945817e-05	5.399992e-01	-1.07000e-05	
129	1.170000e+00	-1.92340e-05	5.399985e-01	1.069993e-05	
130	1.170000e+00	1.942458e-05	5.399970e-01	-1.06999e-05	
131	1.170000e+00	-1.92238e-05	5.399942e-01	1.069990e-05	
132	1.170001e+00	1.941620e-05	5.399884e-01	-1.06999e-05	
133	1.170001e+00	-1.92212e-05	5.399769e-01	1.069990e-05	
134	1.170003e+00	1.941411e-05	5.399539e-01	-1.06999e-05	
135	1.170005e+00	-1.92205e-05	5.399079e-01	1.069990e-05	
136	1.170010e+00	1.941358e-05	5.398158e-01	-1.06999e-05	
137	1.170020e+00	-1.92204e-05	5.396317e-01	1.069990e-05	
138	1.170041e+00	1.941345e-05	5.392635e-01	-1.06999e-05	
139	1.170082e+00	-1.92203e-05	5.385270e-01	1.069990e-05	
140	1.170164e+00	1.941342e-05	5.370540e-01	-1.06999e-05	
141	1.170327e+00	-1.92203e-05	5.341082e-01	1.069990e-05	
142	1.170655e+00	1.941341e-05	5.282164e-01	-1.06999e-05	
143	1.171309e+00	-1.92158e-05	5.164329e-01	1.069990e-05	
144	1.172619e+00	1.941416e-05	4.928659e-01	-1.06999e-05	
145	1.175237e+00	-1.92158e-05	4.457319e-01	1.069990e-05	
146	1.180474e+00	1.941416e-05	3.514639e-01	-1.06999e-05	
147	1.190948e+00	-1.92158e-05	1.629279e-01	1.069990e-05	
148	1.200000e+00	1.941416e-05	0.000000e+00	-1.06999e-05	
149	1.202095e+00	9.882859e-08	0.000000e+00	-2.26432e-16	
150	1.206285e+00	9.903325e-08	0.000000e+00	2.265852e-16	
151	1.214664e+00	9.910436e-08	0.000000e+00	-2.24977e-16	
152	1.231423e+00	9.910415e-08	0.000000e+00	2.265863e-16	
153	1.264940e+00	9.910436e-08	0.000000e+00	-2.24977e-16	
154	1.331975e+00	9.910415e-08	0.000000e+00	2.265863e-16	
155	1.431975e+00	9.910436e-08	0.000000e+00	-2.24977e-16	
156	1.531975e+00	9.910415e-08	0.000000e+00	2.265863e-16	
157	1.631975e+00	9.910436e-08	0.000000e+00	-2.24977e-16	
158	1.731975e+00	9.910415e-08	0.000000e+00	2.265863e-16	
159	1.831975e+00	9.910436e-08	0.000000e+00	-2.24977e-16	
160	1.931975e+00	9.910415e-08	0.000000e+00	2.265863e-16	
161	2.000000e+00	9.910436e-08	0.000000e+00	-2.24977e-16	
162	2.010000e+00	9.910425e-08	1.800000e-01	8.046456e-19	
163	2.030000e+00	9.910425e-08	5.400000e-01	8.046451e-19	
164	2.070000e+00	9.910425e-08	1.260000e+00	8.046456e-19	
165	2.070000e+00	9.910425e-08	1.260000e+00	-3.86182e-19	
166	2.070000e+00	1.089234e-03	1.260000e+00	2.509402e-04	
167	2.070000e+00	3.476174e-03	1.260000e+00	1.907981e-04	
168	2.070000e+00	2.185144e-03	1.260000e+00	1.217968e-04	
169	2.070000e+00	-1.31821e-03	1.260000e+00	-5.71760e-06	
170	2.070000e+00	-1.69807e-03	1.260000e+00	2.646831e-05	

Index   time            d_out           din             m.x1.x1.xsc1.ms 
--------------------------------------------------------------------------------
171	2.070000e+00	-1.13777e-03	1.260000e+00	-1.56280e-05	
172	2.070000e+00	-3.95242e-04	1.260000e+00	2.433924e-05	
173	2.070000e+00	-1.61057e-04	1.260000e+00	2.075687e-05	
174	2.070000e+00	5.532825e-05	1.260000e+00	1.930496e-04	
175	2.070000e+00	-2.53754e-04	1.260000e+00	4.423518e-04	
176	2.070000e+00	-9.14989e-04	1.260000e+00	1.055808e-03	
177	2.070000e+00	2.967451e-04	1.260000e+00	2.133324e-03	
178	2.070000e+00	1.305526e-03	1.260000e+00	2.608092e-03	
179	2.070000e+00	1.391413e-03	1.260000e+00	2.573011e-03	
180	2.070000e+00	1.888125e-03	1.260000e+00	2.539470e-03	
181	2.070000e+00	3.399162e-03	1.260000e+00	2.425490e-03	
182	2.070000e+00	5.951409e-03	1.260000e+00	2.063704e-03	
183	2.070000e+00	5.985605e-03	1.260000e+00	1.457437e-03	
184	2.070000e+00	3.535997e-03	1.260000e+00	7.925466e-04	
185	2.070000e+00	1.140411e-03	1.260000e+00	3.714397e-04	
186	2.070000e+00	3.078195e-04	1.260000e+00	1.419035e-04	
187	2.070000e+00	-5.07047e-04	1.260000e+00	2.663110e-05	
188	2.070000e+00	-1.35999e-03	1.260000e+00	1.103553e-05	
189	2.070000e+00	-2.82563e-03	1.260000e+00	2.233628e-07	
190	2.070000e+00	-7.68068e-04	1.260000e+00	2.783130e-06	
191	2.070000e+00	-7.09098e-04	1.260000e+00	-1.74922e-06	
192	2.070000e+00	1.064847e-04	1.260000e+00	2.095067e-06	
193	2.070000e+00	-2.84226e-04	1.260000e+00	-1.99188e-06	
194	2.070000e+00	2.019531e-04	1.260000e+00	2.012366e-06	
195	2.070000e+00	-1.97813e-04	1.260000e+00	-2.00960e-06	
196	2.070000e+00	1.872219e-04	1.260000e+00	2.009587e-06	
197	2.070000e+00	-1.84260e-04	1.260000e+00	-2.00917e-06	
198	2.070000e+00	1.828079e-04	1.260000e+00	2.009313e-06	
199	2.070000e+00	-1.81606e-04	1.260000e+00	-2.00909e-06	
200	2.070000e+00	1.811546e-04	1.260001e+00	2.009252e-06	
201	2.070000e+00	-1.80809e-04	1.260001e+00	-2.00907e-06	
202	2.070000e+00	1.806065e-04	1.260002e+00	2.009236e-06	
203	2.070000e+00	-1.80641e-04	1.260003e+00	-2.00906e-06	
204	2.070000e+00	1.804382e-04	1.260006e+00	2.009231e-06	
205	2.070001e+00	-1.80539e-04	1.260010e+00	-2.00906e-06	
206	2.070001e+00	1.803891e-04	1.260018e+00	2.009230e-06	
207	2.070002e+00	-1.80563e-04	1.260033e+00	-2.00906e-06	
208	2.070003e+00	1.803708e-04	1.260063e+00	2.009230e-06	
209	2.070007e+00	-1.80604e-04	1.260122e+00	-2.00906e-06	
210	2.070013e+00	1.803669e-04	1.260241e+00	2.009230e-06	
211	2.070027e+00	-1.80603e-04	1.260479e+00	-2.00906e-06	
212	2.070053e+00	1.803659e-04	1.260955e+00	2.009230e-06	
213	2.070106e+00	-1.80602e-04	1.261906e+00	-2.00906e-06	
214	2.070212e+00	1.804246e-04	1.263809e+00	2.009230e-06	
215	2.070423e+00	-1.80214e-04	1.267615e+00	-2.00906e-06	
216	2.070846e+00	1.804245e-04	1.275226e+00	2.009230e-06	
217	2.071692e+00	-1.80214e-04	1.290449e+00	-2.00906e-06	
218	2.073383e+00	1.804245e-04	1.320894e+00	2.009230e-06	
219	2.076766e+00	-1.80214e-04	1.381785e+00	-2.00906e-06	
220	2.083532e+00	1.804245e-04	1.503568e+00	2.009230e-06	
221	2.097063e+00	-1.80214e-04	1.747132e+00	-2.00906e-06	
222	2.100000e+00	1.804068e-04	1.800000e+00	2.009230e-06	
223	2.102706e+00	9.910504e-08	1.800000e+00	8.525046e-11	
224	2.108119e+00	9.367760e-08	1.800000e+00	8.525042e-11	
225	2.118944e+00	9.910505e-08	1.800000e+00	8.525046e-11	
226	2.140594e+00	9.910355e-08	1.800000e+00	8.525042e-11	
227	2.183894e+00	9.910505e-08	1.800000e+00	8.525046e-11	
228	2.270495e+00	9.910355e-08	1.800000e+00	8.525042e-11	

Index   time            d_out           din             m.x1.x1.xsc1.ms 
--------------------------------------------------------------------------------
229	2.370495e+00	9.910505e-08	1.800000e+00	8.525046e-11	
230	2.470495e+00	9.910355e-08	1.800000e+00	8.525042e-11	
231	2.570495e+00	9.910505e-08	1.800000e+00	8.525046e-11	
232	2.670495e+00	9.910355e-08	1.800000e+00	8.525042e-11	
233	2.770495e+00	9.910505e-08	1.800000e+00	8.525046e-11	
234	2.870495e+00	9.910355e-08	1.800000e+00	8.525042e-11	
235	2.970495e+00	9.910505e-08	1.800000e+00	8.525046e-11	
236	3.070495e+00	9.910355e-08	1.800000e+00	8.525042e-11	
237	3.100000e+00	9.910505e-08	1.800000e+00	8.525046e-11	
238	3.110000e+00	9.910430e-08	1.620000e+00	8.525044e-11	
239	3.130000e+00	9.910430e-08	1.260000e+00	8.525044e-11	
240	3.170000e+00	9.910430e-08	5.400000e-01	8.525044e-11	
241	3.170000e+00	9.910430e-08	5.400000e-01	8.525044e-11	
242	3.170000e+00	9.417011e-05	5.400000e-01	-1.87966e-06	
243	3.170000e+00	2.928544e-04	5.400000e-01	-1.54355e-06	
244	3.170000e+00	2.107074e-04	5.400000e-01	-2.16209e-06	
245	3.170000e+00	-2.63279e-04	5.400000e-01	-2.67576e-06	
246	3.170000e+00	-3.41845e-04	5.400000e-01	-3.02189e-06	
247	3.170000e+00	-3.00037e-05	5.400000e-01	-3.13485e-06	
248	3.170000e+00	-4.40801e-05	5.400000e-01	-3.46962e-06	
249	3.170000e+00	5.716983e-05	5.400000e-01	-4.60377e-06	
250	3.170000e+00	6.797833e-05	5.400000e-01	-3.45169e-05	
251	3.170000e+00	-4.52727e-06	5.399999e-01	-6.38971e-05	
252	3.170000e+00	-8.79073e-04	5.399999e-01	-1.58098e-05	
253	3.170000e+00	-2.78456e-03	5.399999e-01	-3.33784e-05	
254	3.170000e+00	-8.08122e-03	5.399999e-01	2.208475e-06	
255	3.170000e+00	-8.82867e-03	5.399999e-01	-1.08322e-05	
256	3.170000e+00	-1.01863e-02	5.399999e-01	-1.17342e-05	
257	3.170000e+00	-1.16413e-02	5.399999e-01	-1.28022e-05	
258	3.170000e+00	-1.21115e-02	5.399999e-01	-1.97509e-05	
259	3.170000e+00	-9.57093e-03	5.399999e-01	-5.83109e-05	
260	3.170000e+00	-2.03358e-03	5.399999e-01	-1.50018e-04	
261	3.170000e+00	1.996133e-03	5.399999e-01	-1.14337e-04	
262	3.170000e+00	5.834414e-03	5.399999e-01	-6.35147e-05	
263	3.170000e+00	4.296845e-03	5.399999e-01	-2.79970e-06	
264	3.170000e+00	2.289531e-03	5.399999e-01	-1.73443e-05	
265	3.170000e+00	5.492642e-04	5.399999e-01	5.420398e-06	
266	3.170000e+00	2.773335e-04	5.399999e-01	-1.31129e-05	
267	3.170000e+00	2.990294e-05	5.399999e-01	9.930355e-06	
268	3.170000e+00	4.897713e-05	5.399999e-01	-1.09221e-05	
269	3.170000e+00	-2.17160e-05	5.399999e-01	1.068482e-05	
270	3.170000e+00	2.231430e-05	5.399999e-01	-1.07054e-05	
271	3.170000e+00	-2.01339e-05	5.399999e-01	1.070234e-05	
272	3.170000e+00	2.014385e-05	5.399999e-01	-1.07022e-05	
273	3.170000e+00	-1.94378e-05	5.399998e-01	1.070110e-05	
274	3.170000e+00	1.959032e-05	5.399997e-01	-1.07010e-05	
275	3.170000e+00	-1.92722e-05	5.399996e-01	1.070078e-05	
276	3.170000e+00	1.945521e-05	5.399992e-01	-1.07008e-05	
277	3.170000e+00	-1.92311e-05	5.399985e-01	1.070069e-05	
278	3.170000e+00	1.942163e-05	5.399970e-01	-1.07007e-05	
279	3.170000e+00	-1.92208e-05	5.399942e-01	1.070067e-05	
280	3.170001e+00	1.941325e-05	5.399884e-01	-1.07007e-05	
281	3.170001e+00	-1.92182e-05	5.399769e-01	1.070067e-05	
282	3.170003e+00	1.941115e-05	5.399539e-01	-1.07007e-05	
283	3.170005e+00	-1.92176e-05	5.399079e-01	1.070067e-05	
284	3.170010e+00	1.941063e-05	5.398158e-01	-1.07007e-05	
285	3.170020e+00	-1.92174e-05	5.396317e-01	1.070067e-05	
286	3.170041e+00	1.941050e-05	5.392635e-01	-1.07007e-05	

Index   time            d_out           din             m.x1.x1.xsc1.ms 
--------------------------------------------------------------------------------
287	3.170082e+00	-1.92174e-05	5.385270e-01	1.070067e-05	
288	3.170164e+00	1.941046e-05	5.370541e-01	-1.07007e-05	
289	3.170327e+00	-1.92174e-05	5.341083e-01	1.070067e-05	
290	3.170655e+00	1.941046e-05	5.282166e-01	-1.07007e-05	
291	3.171309e+00	-1.92128e-05	5.164332e-01	1.070067e-05	
292	3.172619e+00	1.941120e-05	4.928666e-01	-1.07007e-05	
293	3.175237e+00	-1.92128e-05	4.457332e-01	1.070067e-05	
294	3.180474e+00	1.941120e-05	3.514665e-01	-1.07007e-05	
295	3.190948e+00	-1.92128e-05	1.629331e-01	1.070067e-05	
296	3.200000e+00	1.941120e-05	0.000000e+00	-1.07007e-05	
297	3.202095e+00	9.882869e-08	0.000000e+00	-2.26449e-16	
298	3.206284e+00	9.903328e-08	0.000000e+00	2.266023e-16	
299	3.214664e+00	9.910436e-08	0.000000e+00	-2.24994e-16	
300	3.231422e+00	9.910415e-08	0.000000e+00	2.266034e-16	
301	3.264939e+00	9.910436e-08	0.000000e+00	-2.24994e-16	
302	3.331973e+00	9.910415e-08	0.000000e+00	2.266034e-16	
303	3.431973e+00	9.910436e-08	0.000000e+00	-2.24994e-16	
304	3.531973e+00	9.910415e-08	0.000000e+00	2.266034e-16	
305	3.631973e+00	9.910436e-08	0.000000e+00	-2.24994e-16	
306	3.731973e+00	9.910415e-08	0.000000e+00	2.266034e-16	
307	3.831973e+00	9.910436e-08	0.000000e+00	-2.24994e-16	
308	3.931973e+00	9.910415e-08	0.000000e+00	2.266034e-16	
309	4.000000e+00	9.910436e-08	0.000000e+00	-2.24994e-16	
310	4.010000e+00	9.910425e-08	1.800000e-01	8.046456e-19	
311	4.030000e+00	9.910425e-08	5.400000e-01	8.046451e-19	
312	4.070000e+00	9.910425e-08	1.260000e+00	8.046456e-19	
313	4.070000e+00	9.910425e-08	1.260000e+00	-1.26749e-18	
314	4.070000e+00	1.089234e-03	1.260000e+00	2.509402e-04	
315	4.070000e+00	3.476191e-03	1.260000e+00	1.908025e-04	
316	4.070000e+00	2.185151e-03	1.260000e+00	1.217914e-04	
317	4.070000e+00	-1.31828e-03	1.260000e+00	-5.71427e-06	
318	4.070000e+00	-1.69805e-03	1.260000e+00	2.646452e-05	
319	4.070000e+00	-1.13775e-03	1.260000e+00	-1.56243e-05	
320	4.070000e+00	-3.95220e-04	1.260000e+00	2.433551e-05	
321	4.070000e+00	-1.61057e-04	1.260000e+00	2.076715e-05	
322	4.070000e+00	5.535594e-05	1.260000e+00	1.930707e-04	
323	4.070000e+00	-2.53943e-04	1.260000e+00	4.424395e-04	
324	4.070000e+00	-9.14874e-04	1.260000e+00	1.055962e-03	
325	4.070000e+00	2.970332e-04	1.260000e+00	2.133555e-03	
