                * e:\fossee\ws\sram_1bit_test\sram_1bit_test.cir
                Transient Analysis  Wed Oct 05 17:48:44  2022
--------------------------------------------------------------------------------
Index   time            a.x1.a3#branch_ a.x1.a3#branch_ v.x1.v1#branch  
--------------------------------------------------------------------------------
0	0.000000e+00	1.036622e-18	-5.01000e-12	-6.14278e-11	
1	1.000000e-03	4.184179e-15	-5.00792e-12	-6.14644e-11	
2	2.000000e-03	4.385662e-15	-5.00792e-12	-6.14642e-11	
3	4.000000e-03	4.827257e-15	-5.00792e-12	-6.14635e-11	
4	8.000000e-03	5.400234e-15	-5.00792e-12	-6.14637e-11	
5	1.600000e-02	7.503892e-15	-5.00792e-12	-6.14656e-11	
6	3.200000e-02	1.816163e-14	-5.00792e-12	-6.15128e-11	
7	6.400000e-02	1.823348e-12	-5.00792e-12	-6.15947e-11	
8	1.000000e-01	7.340323e-12	-5.00792e-12	-6.03247e-11	
9	1.064000e-01	8.065141e-12	-5.00792e-12	-6.01730e-11	
10	1.192000e-01	9.349853e-12	-5.00792e-12	-6.01535e-11	
11	1.192000e-01	9.349282e-12	-5.00792e-12	-6.01534e-11	
12	1.192000e-01	-3.57141e-05	1.331358e-06	3.303286e-06	
13	1.192000e-01	-3.64155e-05	1.344155e-06	9.957627e-06	
14	1.192000e-01	-2.69859e-05	1.357831e-06	4.436681e-06	
15	1.192000e-01	-3.04278e-05	1.378333e-06	3.013230e-06	
16	1.192000e-01	-2.70378e-05	1.394969e-06	1.655505e-06	
17	1.192000e-01	-3.11258e-05	1.452142e-06	9.806365e-07	
18	1.192000e-01	-5.24806e-05	2.448053e-06	5.492671e-07	
19	1.192000e-01	-9.05283e-05	4.963895e-05	-3.01346e-06	
20	1.192000e-01	-9.95366e-05	5.102038e-05	-1.55298e-05	
21	1.192000e-01	-1.00270e-04	3.991052e-05	-1.80155e-05	
22	1.192000e-01	-1.01543e-04	3.988307e-05	-1.80310e-05	
23	1.192000e-01	-1.03605e-04	3.984841e-05	-1.81194e-05	
24	1.192000e-01	-1.06312e-04	3.976887e-05	-1.87431e-05	
25	1.192000e-01	-1.08013e-04	3.965074e-05	-2.04291e-05	
26	1.192000e-01	-1.05169e-04	3.945650e-05	-2.41323e-05	
27	1.192000e-01	-9.62088e-05	3.922571e-05	-2.94515e-05	
28	1.192000e-01	-8.88005e-05	3.905520e-05	-3.27008e-05	
29	1.192000e-01	-8.18318e-05	3.890982e-05	-3.56139e-05	
30	1.192000e-01	-7.61968e-05	3.878639e-05	-3.72040e-05	
31	1.192000e-01	-7.02812e-05	3.867325e-05	-3.88922e-05	
32	1.192000e-01	-6.49952e-05	3.856531e-05	-3.97537e-05	
33	1.192000e-01	-5.86013e-05	3.845195e-05	-4.08948e-05	
34	1.192000e-01	-4.92244e-05	3.827794e-05	-4.15197e-05	
35	1.192000e-01	-4.35288e-05	3.818280e-05	-4.18843e-05	
36	1.192000e-01	-3.71724e-05	3.806422e-05	-4.16139e-05	
37	1.192000e-01	-2.32969e-05	3.779936e-05	-4.08119e-05	
38	1.192000e-01	-9.77954e-06	3.737230e-05	-3.91818e-05	
39	1.192000e-01	-1.64959e-06	3.593605e-05	-3.85532e-05	
40	1.192000e-01	-5.77038e-07	2.554346e-05	-3.66820e-05	
41	1.192000e-01	2.314027e-07	1.093441e-05	-2.65660e-05	
42	1.192000e-01	-2.61397e-07	5.461844e-06	-1.94068e-05	
43	1.192000e-01	2.586534e-07	3.899569e-06	-1.18913e-05	
44	1.192000e-01	-2.58900e-07	1.659350e-06	-5.97411e-06	
45	1.192000e-01	2.588467e-07	7.767185e-07	-2.35893e-06	
46	1.192000e-01	-2.58866e-07	1.369790e-07	-7.29009e-07	
47	1.192000e-01	2.588531e-07	8.495660e-08	-1.55726e-08	
48	1.192000e-01	-2.58863e-07	-3.80930e-08	-1.18724e-07	
49	1.192000e-01	2.588527e-07	3.875656e-08	1.245526e-07	
50	1.192000e-01	-2.58863e-07	-3.77776e-08	-1.18381e-07	
51	1.192000e-01	2.588524e-07	3.795179e-08	1.222231e-07	
52	1.192000e-01	-2.58862e-07	-3.77350e-08	-1.19674e-07	
53	1.192000e-01	2.588524e-07	3.775137e-08	1.209757e-07	
54	1.192000e-01	-2.58862e-07	-3.77004e-08	-1.20278e-07	

Index   time            a.x1.a3#branch_ a.x1.a3#branch_ v.x1.v1#branch  
--------------------------------------------------------------------------------
55	1.192001e-01	2.588523e-07	3.771270e-08	1.205735e-07	
56	1.192001e-01	-2.58862e-07	-3.76861e-08	-1.20436e-07	
57	1.192002e-01	2.588523e-07	3.770232e-08	1.204452e-07	
58	1.192004e-01	-2.58862e-07	-3.76816e-08	-1.20489e-07	
59	1.192006e-01	2.588523e-07	3.769941e-08	1.204050e-07	
60	1.192012e-01	-2.58862e-07	-3.76801e-08	-1.20503e-07	
61	1.192023e-01	2.588523e-07	3.769860e-08	1.203922e-07	
62	1.192045e-01	-2.58862e-07	-3.76798e-08	-1.20509e-07	
63	1.192088e-01	2.588523e-07	3.769849e-08	1.203887e-07	
64	1.192176e-01	-2.58862e-07	-3.76799e-08	-1.20510e-07	
65	1.192350e-01	2.588523e-07	3.769884e-08	1.203878e-07	
66	1.192700e-01	-2.58862e-07	-3.76807e-08	-1.20510e-07	
67	1.193399e-01	2.588523e-07	3.770042e-08	1.203877e-07	
68	1.194796e-01	-2.58862e-07	-3.76838e-08	-1.20510e-07	
69	1.197591e-01	2.588523e-07	3.770675e-08	1.203875e-07	
70	1.203181e-01	-2.58862e-07	-3.76962e-08	-1.20510e-07	
71	1.214361e-01	2.588523e-07	3.773171e-08	1.203875e-07	
72	1.236720e-01	-2.58862e-07	-3.77446e-08	-1.20510e-07	
73	1.281439e-01	2.588523e-07	3.782585e-08	1.203875e-07	
74	1.370877e-01	-2.58862e-07	-3.79167e-08	-1.20510e-07	
75	1.549754e-01	2.588523e-07	3.812415e-08	1.203875e-07	
76	1.907507e-01	-2.58862e-07	-3.83516e-08	-1.20510e-07	
77	2.000000e-01	2.588523e-07	3.842466e-08	1.203875e-07	
78	2.071551e-01	-5.01010e-12	1.372102e-11	-6.13443e-11	
79	2.214652e-01	-5.01010e-12	1.368824e-11	-6.13437e-11	
80	2.500854e-01	-5.01010e-12	1.372102e-11	-6.13447e-11	
81	3.073259e-01	-5.01010e-12	1.372100e-11	-6.13444e-11	
82	4.073259e-01	-5.01010e-12	1.372102e-11	-6.13445e-11	
83	5.073259e-01	-5.01010e-12	1.372100e-11	-6.13443e-11	
84	6.073259e-01	-5.01010e-12	1.372102e-11	-6.13445e-11	
85	7.073259e-01	-5.01010e-12	1.372100e-11	-6.13444e-11	
86	8.073259e-01	-5.01010e-12	1.372102e-11	-6.13446e-11	
87	9.073259e-01	-5.01010e-12	1.372100e-11	-6.13444e-11	
88	1.007326e+00	-5.01010e-12	1.372102e-11	-6.13446e-11	
89	1.100000e+00	-5.01010e-12	1.372100e-11	-6.13442e-11	
90	1.110000e+00	-5.01010e-12	1.372101e-11	-6.13443e-11	
91	1.130000e+00	-5.01010e-12	1.372101e-11	-6.13445e-11	
92	1.170000e+00	-5.01010e-12	1.372101e-11	-6.13443e-11	
93	1.170000e+00	-5.01010e-12	1.372101e-11	-6.13445e-11	
94	1.170000e+00	1.328803e-06	-4.44221e-05	4.728754e-06	
95	1.170000e+00	1.333591e-06	-7.55390e-05	1.378436e-05	
96	1.170000e+00	1.352627e-06	-1.01153e-04	1.363496e-05	
97	1.170000e+00	1.371632e-06	-9.02543e-05	8.981242e-06	
98	1.170000e+00	1.389947e-06	-8.99764e-05	4.745788e-06	
99	1.170000e+00	1.411254e-06	-8.62469e-05	4.097268e-06	
100	1.170000e+00	1.445679e-06	-8.93742e-05	2.261263e-06	
101	1.170000e+00	1.632389e-06	-8.76622e-05	1.778451e-06	
102	1.170000e+00	7.627517e-06	-9.63381e-05	2.300097e-06	
103	1.170000e+00	3.455870e-05	-1.04999e-04	1.476835e-06	
104	1.170000e+00	7.432023e-05	-1.37377e-04	-2.17279e-05	
105	1.170000e+00	1.593170e-04	-1.86160e-04	-5.32901e-05	
106	1.170000e+00	1.708444e-04	-1.99899e-04	-6.93682e-05	
107	1.170000e+00	1.553610e-04	-1.95508e-04	-7.30488e-05	
108	1.170000e+00	1.550664e-04	-1.94360e-04	-7.39964e-05	
109	1.170000e+00	1.543998e-04	-1.90326e-04	-7.42346e-05	
110	1.170000e+00	1.527818e-04	-1.78391e-04	-7.55115e-05	
111	1.170000e+00	1.457865e-04	-1.43720e-04	-7.33485e-05	
112	1.170000e+00	1.158283e-04	-8.25463e-05	-6.91440e-05	

Index   time            a.x1.a3#branch_ a.x1.a3#branch_ v.x1.v1#branch  
--------------------------------------------------------------------------------
113	1.170000e+00	7.691809e-05	-3.98730e-05	-7.02475e-05	
114	1.170000e+00	3.138188e-05	-6.92590e-06	-5.25846e-05	
115	1.170000e+00	1.424466e-05	-2.57724e-06	-3.81805e-05	
116	1.170000e+00	9.607559e-06	3.583676e-07	-2.39622e-05	
117	1.170000e+00	5.128329e-06	-7.28379e-07	-1.47621e-05	
118	1.170000e+00	2.642846e-06	6.746634e-07	-5.05238e-06	
119	1.170000e+00	4.805760e-07	-6.85554e-07	-2.97480e-06	
120	1.170000e+00	4.588910e-07	6.831780e-07	5.627855e-07	
121	1.170000e+00	-2.35171e-07	-6.83705e-07	-1.14326e-06	
122	1.170000e+00	2.586824e-07	6.836305e-07	1.082140e-06	
123	1.170000e+00	-2.59748e-07	-6.83652e-07	-1.08027e-06	
124	1.170000e+00	2.598599e-07	6.836413e-07	1.080042e-06	
125	1.170000e+00	-2.59844e-07	-6.83651e-07	-1.08008e-06	
126	1.170000e+00	2.598978e-07	6.836412e-07	1.079922e-06	
127	1.170000e+00	-2.59872e-07	-6.83651e-07	-1.08002e-06	
128	1.170000e+00	2.599068e-07	6.836411e-07	1.079892e-06	
129	1.170000e+00	-2.59879e-07	-6.83651e-07	-1.08001e-06	
130	1.170000e+00	2.599090e-07	6.836411e-07	1.079884e-06	
131	1.170000e+00	-2.59880e-07	-6.83651e-07	-1.08000e-06	
132	1.170001e+00	2.599095e-07	6.836411e-07	1.079882e-06	
133	1.170001e+00	-2.59881e-07	-6.83651e-07	-1.08000e-06	
134	1.170003e+00	2.599097e-07	6.836411e-07	1.079882e-06	
135	1.170005e+00	-2.59881e-07	-6.83651e-07	-1.08000e-06	
136	1.170010e+00	2.599097e-07	6.836411e-07	1.079882e-06	
137	1.170020e+00	-2.59881e-07	-6.83651e-07	-1.08000e-06	
138	1.170041e+00	2.599097e-07	6.836411e-07	1.079882e-06	
139	1.170082e+00	-2.59881e-07	-6.83651e-07	-1.08000e-06	
140	1.170164e+00	2.599097e-07	6.836411e-07	1.079882e-06	
141	1.170327e+00	-2.59881e-07	-6.83651e-07	-1.08000e-06	
142	1.170655e+00	2.599096e-07	6.836411e-07	1.079882e-06	
143	1.171309e+00	-2.59881e-07	-6.83651e-07	-1.08000e-06	
144	1.172619e+00	2.599092e-07	6.836411e-07	1.079882e-06	
145	1.175237e+00	-2.59882e-07	-6.83651e-07	-1.08000e-06	
146	1.180474e+00	2.599091e-07	6.836411e-07	1.079882e-06	
147	1.190948e+00	-2.59882e-07	-6.83651e-07	-1.08000e-06	
148	1.200000e+00	2.599091e-07	6.836411e-07	1.079882e-06	
149	1.202095e+00	1.373215e-11	-5.01010e-12	-6.01616e-11	
150	1.206285e+00	1.374201e-11	-5.01010e-12	-6.01616e-11	
151	1.214664e+00	1.372100e-11	-5.01010e-12	-6.01618e-11	
152	1.231423e+00	1.372101e-11	-5.01010e-12	-6.01616e-11	
153	1.264940e+00	1.372100e-11	-5.01010e-12	-6.01614e-11	
154	1.331975e+00	1.372102e-11	-5.01010e-12	-6.01616e-11	
155	1.431975e+00	1.372100e-11	-5.01010e-12	-6.01616e-11	
156	1.531975e+00	1.372102e-11	-5.01010e-12	-6.01617e-11	
157	1.631975e+00	1.372100e-11	-5.01010e-12	-6.01615e-11	
158	1.731975e+00	1.372102e-11	-5.01010e-12	-6.01617e-11	
159	1.831975e+00	1.372100e-11	-5.01010e-12	-6.01615e-11	
160	1.931975e+00	1.372102e-11	-5.01010e-12	-6.01617e-11	
161	2.000000e+00	1.372100e-11	-5.01010e-12	-6.01616e-11	
162	2.010000e+00	1.372101e-11	-5.01010e-12	-6.01616e-11	
163	2.030000e+00	1.372101e-11	-5.01010e-12	-6.01616e-11	
164	2.070000e+00	1.372101e-11	-5.01010e-12	-6.01617e-11	
165	2.070000e+00	1.372100e-11	-5.01010e-12	-6.01617e-11	
166	2.070000e+00	-4.53788e-05	1.329089e-06	6.177268e-06	
167	2.070000e+00	-7.89990e-05	1.333768e-06	1.941521e-05	
168	2.070000e+00	-1.06727e-04	1.352309e-06	2.403855e-05	
169	2.070000e+00	-9.52802e-05	1.370554e-06	1.788764e-05	
170	2.070000e+00	-9.21904e-05	1.389959e-06	9.958282e-06	

Index   time            a.x1.a3#branch_ a.x1.a3#branch_ v.x1.v1#branch  
--------------------------------------------------------------------------------
171	2.070000e+00	-8.77248e-05	1.413285e-06	7.043282e-06	
172	2.070000e+00	-8.98562e-05	1.449276e-06	3.822314e-06	
173	2.070000e+00	-8.82010e-05	1.645859e-06	2.410876e-06	
174	2.070000e+00	-9.63711e-05	7.764029e-06	2.643350e-06	
175	2.070000e+00	-1.05344e-04	3.439323e-05	1.913881e-06	
176	2.070000e+00	-1.34169e-04	6.992957e-05	-1.78478e-05	
177	2.070000e+00	-1.80166e-04	1.490593e-04	-4.22961e-05	
178	2.070000e+00	-2.00011e-04	1.697405e-04	-5.78349e-05	
179	2.070000e+00	-1.96131e-04	1.539628e-04	-6.14595e-05	
180	2.070000e+00	-1.94607e-04	1.531216e-04	-6.10315e-05	
181	2.070000e+00	-1.88032e-04	1.503736e-04	-5.60015e-05	
182	2.070000e+00	-1.64941e-04	1.376948e-04	-4.55999e-05	
183	2.070000e+00	-1.21781e-04	1.058856e-04	-3.71449e-05	
184	2.070000e+00	-7.08703e-05	6.115839e-05	-3.53715e-05	
185	2.070000e+00	-3.49135e-05	3.199978e-05	-3.12368e-05	
186	2.070000e+00	-1.48122e-05	1.828459e-05	-3.02100e-05	
187	2.070000e+00	-3.18929e-06	9.820389e-06	-2.40345e-05	
188	2.070000e+00	-1.44715e-06	7.468026e-06	-2.05658e-05	
189	2.070000e+00	3.656069e-07	5.390331e-06	-1.24560e-05	
190	2.070000e+00	-5.23996e-07	3.516324e-06	-8.47804e-06	
191	2.070000e+00	4.946424e-07	9.463928e-07	-2.30832e-06	
192	2.070000e+00	-5.01090e-07	7.822153e-07	-1.90550e-06	
193	2.070000e+00	4.995046e-07	-2.55707e-07	6.384789e-07	
194	2.070000e+00	-4.99814e-07	3.667728e-07	-8.82845e-07	
195	2.070000e+00	4.997725e-07	-3.56099e-07	8.666867e-07	
196	2.070000e+00	-4.99783e-07	3.565023e-07	-8.59227e-07	
197	2.070000e+00	4.997706e-07	-3.55975e-07	8.629827e-07	
198	2.070000e+00	-4.99781e-07	3.562249e-07	-8.59989e-07	
199	2.070000e+00	4.997706e-07	-3.56135e-07	8.615321e-07	
200	2.070000e+00	-4.99781e-07	3.561926e-07	-8.60708e-07	
201	2.070000e+00	4.997706e-07	-3.56160e-07	8.610714e-07	
202	2.070000e+00	-4.99781e-07	3.561934e-07	-8.60887e-07	
203	2.070000e+00	4.997705e-07	-3.56166e-07	8.609242e-07	
204	2.070000e+00	-4.99781e-07	3.561939e-07	-8.60956e-07	
205	2.070001e+00	4.997705e-07	-3.56167e-07	8.608793e-07	
206	2.070001e+00	-4.99781e-07	3.561942e-07	-8.60974e-07	
207	2.070002e+00	4.997705e-07	-3.56167e-07	8.608652e-07	
208	2.070003e+00	-4.99781e-07	3.561943e-07	-8.60980e-07	
209	2.070007e+00	4.997705e-07	-3.56167e-07	8.608610e-07	
210	2.070013e+00	-4.99781e-07	3.561943e-07	-8.60982e-07	
211	2.070027e+00	4.997705e-07	-3.56167e-07	8.608599e-07	
212	2.070053e+00	-4.99781e-07	3.561943e-07	-8.60982e-07	
213	2.070106e+00	4.997705e-07	-3.56167e-07	8.608598e-07	
214	2.070212e+00	-4.99781e-07	3.561946e-07	-8.60982e-07	
215	2.070423e+00	4.997705e-07	-3.56167e-07	8.608595e-07	
216	2.070846e+00	-4.99781e-07	3.561946e-07	-8.60982e-07	
217	2.071692e+00	4.997705e-07	-3.56167e-07	8.608595e-07	
218	2.073383e+00	-4.99781e-07	3.561946e-07	-8.60982e-07	
219	2.076766e+00	4.997705e-07	-3.56167e-07	8.608596e-07	
220	2.083532e+00	-4.99781e-07	3.561946e-07	-8.60982e-07	
221	2.097063e+00	4.997705e-07	-3.56167e-07	8.608596e-07	
222	2.100000e+00	-4.99781e-07	3.561945e-07	-8.60982e-07	
223	2.102706e+00	-5.01010e-12	1.372100e-11	-6.13440e-11	
224	2.108119e+00	-5.01010e-12	1.369281e-11	-6.13438e-11	
225	2.118944e+00	-5.01010e-12	1.372100e-11	-6.13442e-11	
226	2.140594e+00	-5.01010e-12	1.372101e-11	-6.13448e-11	
227	2.183894e+00	-5.01010e-12	1.372100e-11	-6.13444e-11	
228	2.270495e+00	-5.01010e-12	1.372101e-11	-6.13446e-11	

Index   time            a.x1.a3#branch_ a.x1.a3#branch_ v.x1.v1#branch  
--------------------------------------------------------------------------------
229	2.370495e+00	-5.01010e-12	1.372100e-11	-6.13442e-11	
230	2.470495e+00	-5.01010e-12	1.372101e-11	-6.13446e-11	
231	2.570495e+00	-5.01010e-12	1.372100e-11	-6.13442e-11	
232	2.670495e+00	-5.01010e-12	1.372101e-11	-6.13447e-11	
233	2.770495e+00	-5.01010e-12	1.372100e-11	-6.13442e-11	
234	2.870495e+00	-5.01010e-12	1.372101e-11	-6.13446e-11	
235	2.970495e+00	-5.01010e-12	1.372100e-11	-6.13442e-11	
236	3.070495e+00	-5.01010e-12	1.372101e-11	-6.13446e-11	
237	3.100000e+00	-5.01010e-12	1.372100e-11	-6.13442e-11	
238	3.110000e+00	-5.01010e-12	1.372101e-11	-6.13442e-11	
239	3.130000e+00	-5.01010e-12	1.372101e-11	-6.13447e-11	
240	3.170000e+00	-5.01010e-12	1.372101e-11	-6.13442e-11	
241	3.170000e+00	-5.01010e-12	1.372101e-11	-6.13445e-11	
242	3.170000e+00	1.328817e-06	-4.44225e-05	4.728801e-06	
243	3.170000e+00	1.333577e-06	-7.55389e-05	1.378441e-05	
244	3.170000e+00	1.352634e-06	-1.01153e-04	1.363490e-05	
245	3.170000e+00	1.371625e-06	-9.02542e-05	8.981301e-06	
246	3.170000e+00	1.389954e-06	-8.99765e-05	4.745745e-06	
247	3.170000e+00	1.411257e-06	-8.62468e-05	4.097290e-06	
248	3.170000e+00	1.445675e-06	-8.93743e-05	2.261231e-06	
249	3.170000e+00	1.632396e-06	-8.76621e-05	1.778477e-06	
250	3.170000e+00	7.627616e-06	-9.63383e-05	2.300095e-06	
251	3.170000e+00	3.455918e-05	-1.04999e-04	1.476742e-06	
252	3.170000e+00	7.432093e-05	-1.37377e-04	-2.17283e-05	
253	3.170000e+00	1.593181e-04	-1.86160e-04	-5.32905e-05	
254	3.170000e+00	1.708443e-04	-1.99899e-04	-6.93683e-05	
255	3.170000e+00	1.553610e-04	-1.95508e-04	-7.30488e-05	
256	3.170000e+00	1.550664e-04	-1.94360e-04	-7.39963e-05	
257	3.170000e+00	1.543999e-04	-1.90326e-04	-7.42345e-05	
258	3.170000e+00	1.527819e-04	-1.78392e-04	-7.55115e-05	
259	3.170000e+00	1.457873e-04	-1.43722e-04	-7.33487e-05	
260	3.170000e+00	1.158294e-04	-8.25479e-05	-6.91440e-05	
261	3.170000e+00	7.692046e-05	-3.98751e-05	-7.02477e-05	
262	3.170000e+00	3.138325e-05	-6.92654e-06	-5.25856e-05	
263	3.170000e+00	1.424498e-05	-2.57733e-06	-3.81810e-05	
264	3.170000e+00	9.607709e-06	3.583234e-07	-2.39626e-05	
265	3.170000e+00	5.128466e-06	-7.28362e-07	-1.47625e-05	
266	3.170000e+00	2.642903e-06	6.746436e-07	-5.05249e-06	
267	3.170000e+00	4.806085e-07	-6.85535e-07	-2.97492e-06	
268	3.170000e+00	4.589154e-07	6.831584e-07	5.627542e-07	
269	3.170000e+00	-2.35182e-07	-6.83686e-07	-1.14326e-06	
270	3.170000e+00	2.586975e-07	6.836110e-07	1.082132e-06	
271	3.170000e+00	-2.59764e-07	-6.83632e-07	-1.08026e-06	
272	3.170000e+00	2.598751e-07	6.836217e-07	1.080034e-06	
273	3.170000e+00	-2.59860e-07	-6.83632e-07	-1.08007e-06	
274	3.170000e+00	2.599129e-07	6.836216e-07	1.079914e-06	
275	3.170000e+00	-2.59887e-07	-6.83632e-07	-1.08001e-06	
276	3.170000e+00	2.599219e-07	6.836216e-07	1.079883e-06	
277	3.170000e+00	-2.59894e-07	-6.83632e-07	-1.08000e-06	
278	3.170000e+00	2.599241e-07	6.836216e-07	1.079876e-06	
279	3.170000e+00	-2.59896e-07	-6.83632e-07	-1.08000e-06	
280	3.170001e+00	2.599247e-07	6.836216e-07	1.079874e-06	
281	3.170001e+00	-2.59896e-07	-6.83632e-07	-1.07999e-06	
282	3.170003e+00	2.599248e-07	6.836216e-07	1.079873e-06	
283	3.170005e+00	-2.59896e-07	-6.83632e-07	-1.07999e-06	
284	3.170010e+00	2.599249e-07	6.836216e-07	1.079873e-06	
285	3.170020e+00	-2.59896e-07	-6.83632e-07	-1.07999e-06	
286	3.170041e+00	2.599249e-07	6.836216e-07	1.079873e-06	

Index   time            a.x1.a3#branch_ a.x1.a3#branch_ v.x1.v1#branch  
--------------------------------------------------------------------------------
287	3.170082e+00	-2.59896e-07	-6.83632e-07	-1.07999e-06	
288	3.170164e+00	2.599248e-07	6.836216e-07	1.079873e-06	
289	3.170327e+00	-2.59896e-07	-6.83632e-07	-1.07999e-06	
290	3.170655e+00	2.599247e-07	6.836216e-07	1.079873e-06	
291	3.171309e+00	-2.59897e-07	-6.83632e-07	-1.07999e-06	
292	3.172619e+00	2.599243e-07	6.836216e-07	1.079873e-06	
293	3.175237e+00	-2.59897e-07	-6.83632e-07	-1.07999e-06	
294	3.180474e+00	2.599243e-07	6.836216e-07	1.079874e-06	
295	3.190948e+00	-2.59897e-07	-6.83632e-07	-1.07999e-06	
296	3.200000e+00	2.599243e-07	6.836216e-07	1.079874e-06	
297	3.202095e+00	1.373215e-11	-5.01010e-12	-6.01616e-11	
298	3.206284e+00	1.374201e-11	-5.01010e-12	-6.01616e-11	
299	3.214664e+00	1.372100e-11	-5.01010e-12	-6.01618e-11	
300	3.231422e+00	1.372101e-11	-5.01010e-12	-6.01619e-11	
301	3.264939e+00	1.372100e-11	-5.01010e-12	-6.01615e-11	
302	3.331973e+00	1.372101e-11	-5.01010e-12	-6.01615e-11	
303	3.431973e+00	1.372100e-11	-5.01010e-12	-6.01616e-11	
304	3.531973e+00	1.372101e-11	-5.01010e-12	-6.01617e-11	
305	3.631973e+00	1.372100e-11	-5.01010e-12	-6.01615e-11	
306	3.731973e+00	1.372101e-11	-5.01010e-12	-6.01617e-11	
307	3.831973e+00	1.372100e-11	-5.01010e-12	-6.01615e-11	
308	3.931973e+00	1.372101e-11	-5.01010e-12	-6.01617e-11	
309	4.000000e+00	1.372100e-11	-5.01010e-12	-6.01616e-11	
310	4.010000e+00	1.372101e-11	-5.01010e-12	-6.01616e-11	
311	4.030000e+00	1.372101e-11	-5.01010e-12	-6.01616e-11	
312	4.070000e+00	1.372101e-11	-5.01010e-12	-6.01617e-11	
313	4.070000e+00	1.372100e-11	-5.01010e-12	-6.01617e-11	
314	4.070000e+00	-4.53788e-05	1.329089e-06	6.177268e-06	
315	4.070000e+00	-7.89998e-05	1.333796e-06	1.941531e-05	
316	4.070000e+00	-1.06727e-04	1.352282e-06	2.403861e-05	
317	4.070000e+00	-9.52803e-05	1.370578e-06	1.788742e-05	
318	4.070000e+00	-9.21901e-05	1.389935e-06	9.958229e-06	
319	4.070000e+00	-8.77251e-05	1.413317e-06	7.043108e-06	
320	4.070000e+00	-8.98559e-05	1.449256e-06	3.822308e-06	
321	4.070000e+00	-8.82015e-05	1.645922e-06	2.410769e-06	
322	4.070000e+00	-9.63718e-05	7.765820e-06	2.643763e-06	
323	4.070000e+00	-1.05348e-04	3.439992e-05	1.911830e-06	
324	4.070000e+00	-1.34176e-04	6.994091e-05	-1.78530e-05	
325	4.070000e+00	-1.80176e-04	1.490733e-04	-4.23004e-05	
