* e:\fossee\ws\bit_addressable_1bit_sram_test\bit_addressable_1bit_sram_test.cir
Transient Analysis  Fri Oct 07 17:59:56  2022
--------------------------------------------------------------------------------
Index   time            data            en              m.x1.x1.x1.xsc1 
--------------------------------------------------------------------------------
0	0.000000e+00	0.000000e+00	0.000000e+00	1.609290e-18	
1	1.000000e-03	1.800000e-02	1.800000e-02	1.592142e-18	
2	2.000000e-03	3.600000e-02	3.600000e-02	1.578806e-18	
3	4.000000e-03	7.200000e-02	7.200000e-02	1.552838e-18	
4	8.000000e-03	1.440000e-01	1.440000e-01	1.688553e-18	
5	1.600000e-02	2.880000e-01	2.880000e-01	1.515615e-18	
6	3.200000e-02	5.760000e-01	5.760000e-01	1.710143e-18	
7	6.400000e-02	1.152000e+00	1.152000e+00	1.504849e-18	
8	6.400000e-02	1.152000e+00	1.152000e+00	5.187450e-14	
9	6.400000e-02	1.152000e+00	1.152000e+00	1.809694e-04	
10	6.400000e-02	1.152000e+00	1.152000e+00	8.974276e-05	
11	6.400000e-02	1.152000e+00	1.152000e+00	1.914374e-05	
12	6.400000e-02	1.152000e+00	1.152000e+00	6.826962e-06	
13	6.400000e-02	1.152000e+00	1.152000e+00	-4.35754e-06	
14	6.400000e-02	1.152000e+00	1.152000e+00	3.022759e-06	
15	6.400000e-02	1.152000e+00	1.152000e+00	-4.91323e-07	
16	6.400000e-02	1.152000e+00	1.152000e+00	1.315870e-05	
17	6.400000e-02	1.152000e+00	1.152000e+00	4.221903e-07	
18	6.400000e-02	1.152000e+00	1.152000e+00	1.333432e-05	
19	6.400000e-02	1.152000e+00	1.152000e+00	-6.05850e-06	
20	6.400000e-02	1.152000e+00	1.152000e+00	-2.95657e-05	
21	6.400000e-02	1.152000e+00	1.152000e+00	6.006702e-07	
22	6.400000e-02	1.152000e+00	1.152000e+00	-6.03101e-05	
23	6.400000e-02	1.152000e+00	1.152000e+00	-3.79184e-05	
24	6.400000e-02	1.152000e+00	1.152000e+00	-2.41114e-05	
25	6.400000e-02	1.152000e+00	1.152000e+00	-1.13536e-05	
26	6.400000e-02	1.152000e+00	1.152000e+00	-1.27448e-06	
27	6.400000e-02	1.152000e+00	1.152000e+00	-1.84454e-07	
28	6.400000e-02	1.152000e+00	1.152000e+00	2.433472e-07	
29	6.400000e-02	1.152000e+00	1.152000e+00	-2.79147e-07	
30	6.400000e-02	1.152000e+00	1.152000e+00	2.805754e-07	
31	6.400000e-02	1.152000e+00	1.152000e+00	2.683853e-04	
32	6.400000e-02	1.152000e+00	1.152000e+00	2.412024e-04	
33	6.400000e-02	1.152000e+00	1.152000e+00	1.992624e-04	
34	6.400000e-02	1.152000e+00	1.152000e+00	1.592512e-04	
35	6.400000e-02	1.152000e+00	1.152000e+00	1.290115e-04	
36	6.400000e-02	1.152000e+00	1.152000e+00	8.910467e-05	
37	6.400000e-02	1.152000e+00	1.152000e+00	7.183986e-05	
38	6.400000e-02	1.152000e+00	1.152000e+00	5.350555e-05	
39	6.400000e-02	1.152000e+00	1.152000e+00	1.731642e-05	
40	6.400000e-02	1.152000e+00	1.152000e+00	-7.23187e-06	
41	6.400000e-02	1.152000e+00	1.152000e+00	-8.23960e-06	
42	6.400000e-02	1.152000e+00	1.152000e+00	4.542319e-05	
43	6.400000e-02	1.152000e+00	1.152000e+00	2.094203e-05	
44	6.400000e-02	1.152000e+00	1.152000e+00	4.779122e-05	
45	6.400000e-02	1.152000e+00	1.152000e+00	1.579901e-05	
46	6.400001e-02	1.152000e+00	1.152000e+00	2.826909e-05	
47	6.400001e-02	1.152000e+00	1.152000e+00	-1.27973e-05	
48	6.400001e-02	1.152000e+00	1.152000e+00	1.829864e-05	
49	6.400001e-02	1.152000e+00	1.152000e+00	-1.31840e-05	
50	6.400001e-02	1.152000e+00	1.152000e+00	1.684893e-05	
51	6.400001e-02	1.152000e+00	1.152000e+00	3.390004e-07	
52	6.400001e-02	1.152000e+00	1.152000e+00	8.012464e-07	
53	6.400001e-02	1.152000e+00	1.152000e+00	5.828701e-07	
54	6.400001e-02	1.152000e+00	1.152000e+00	5.764696e-08	

Index   time            data            en              m.x1.x1.x1.xsc1 
--------------------------------------------------------------------------------
55	6.400001e-02	1.152000e+00	1.152000e+00	1.639237e-07	
56	6.400001e-02	1.152000e+00	1.152000e+00	-8.11503e-08	
57	6.400001e-02	1.152000e+00	1.152000e+00	2.508340e-07	
58	6.400001e-02	1.152000e+00	1.152000e+00	-1.82331e-07	
59	6.400001e-02	1.152000e+00	1.152000e+00	3.191587e-07	
60	6.400001e-02	1.152000e+00	1.152000e+00	-2.39908e-07	
61	6.400001e-02	1.152000e+00	1.152000e+00	3.028548e-07	
62	6.400001e-02	1.152000e+00	1.152000e+00	-2.71340e-07	
63	6.400001e-02	1.152000e+00	1.152000e+00	3.067076e-07	
64	6.400001e-02	1.152000e+00	1.152000e+00	-2.79304e-07	
65	6.400001e-02	1.152000e+00	1.152000e+00	3.104685e-07	
66	6.400001e-02	1.152000e+00	1.152000e+00	-2.81547e-07	
67	6.400001e-02	1.152000e+00	1.152000e+00	3.115681e-07	
68	6.400002e-02	1.152000e+00	1.152000e+00	-2.82090e-07	
69	6.400003e-02	1.152001e+00	1.152001e+00	3.118366e-07	
70	6.400005e-02	1.152001e+00	1.152001e+00	-2.82224e-07	
71	6.400010e-02	1.152002e+00	1.152002e+00	3.119039e-07	
72	6.400019e-02	1.152003e+00	1.152003e+00	-2.82258e-07	
73	6.400038e-02	1.152007e+00	1.152007e+00	3.119207e-07	
74	6.400076e-02	1.152014e+00	1.152014e+00	-2.82266e-07	
75	6.400151e-02	1.152027e+00	1.152027e+00	3.119249e-07	
76	6.400301e-02	1.152054e+00	1.152054e+00	-2.82268e-07	
77	6.400601e-02	1.152108e+00	1.152108e+00	3.119260e-07	
78	6.401201e-02	1.152216e+00	1.152216e+00	-2.82269e-07	
79	6.402402e-02	1.152432e+00	1.152432e+00	3.119263e-07	
80	6.404804e-02	1.152865e+00	1.152865e+00	-2.82269e-07	
81	6.409607e-02	1.153729e+00	1.153729e+00	3.119263e-07	
82	6.419214e-02	1.155458e+00	1.155458e+00	-2.82269e-07	
83	6.438427e-02	1.158917e+00	1.158917e+00	3.119263e-07	
84	6.476854e-02	1.165834e+00	1.165834e+00	-2.82269e-07	
85	6.553706e-02	1.179667e+00	1.179667e+00	3.119263e-07	
86	6.707412e-02	1.207334e+00	1.207334e+00	-2.82269e-07	
87	7.014824e-02	1.262668e+00	1.262668e+00	3.119263e-07	
88	7.629647e-02	1.373336e+00	1.373336e+00	-2.82269e-07	
89	8.859293e-02	1.594673e+00	1.594673e+00	3.119264e-07	
90	1.000000e-01	1.800000e+00	1.800000e+00	-2.82269e-07	
91	1.024593e-01	1.800000e+00	1.800000e+00	1.482871e-08	
92	1.073779e-01	1.800000e+00	1.800000e+00	1.482870e-08	
93	1.172150e-01	1.800000e+00	1.800000e+00	1.482871e-08	
94	1.368894e-01	1.800000e+00	1.800000e+00	1.482871e-08	
95	1.762381e-01	1.800000e+00	1.800000e+00	1.482871e-08	
96	2.549354e-01	1.800000e+00	1.800000e+00	1.482871e-08	
97	3.549354e-01	1.800000e+00	1.800000e+00	1.482871e-08	
98	4.549354e-01	1.800000e+00	1.800000e+00	1.482871e-08	
99	5.549354e-01	1.800000e+00	1.800000e+00	1.482871e-08	
100	6.549354e-01	1.800000e+00	1.800000e+00	1.482871e-08	
101	7.549354e-01	1.800000e+00	1.800000e+00	1.482871e-08	
102	8.549354e-01	1.800000e+00	1.800000e+00	1.482871e-08	
103	9.549354e-01	1.800000e+00	1.800000e+00	1.482871e-08	
104	1.054935e+00	1.800000e+00	1.800000e+00	1.482871e-08	
105	1.100000e+00	1.800000e+00	1.800000e+00	1.482871e-08	
106	1.110000e+00	1.620000e+00	1.800000e+00	1.482871e-08	
107	1.130000e+00	1.260000e+00	1.800000e+00	1.482871e-08	
108	1.170000e+00	5.400000e-01	1.800000e+00	1.482871e-08	
109	1.170000e+00	5.400000e-01	1.800000e+00	1.482871e-08	
110	1.170000e+00	5.400000e-01	1.800000e+00	-1.96904e-06	
111	1.170000e+00	5.400000e-01	1.800000e+00	-2.55270e-06	
112	1.170000e+00	5.400000e-01	1.800000e+00	-8.90978e-06	

Index   time            data            en              m.x1.x1.x1.xsc1 
--------------------------------------------------------------------------------
113	1.170000e+00	5.400000e-01	1.800000e+00	-2.83727e-05	
114	1.170000e+00	5.400000e-01	1.800000e+00	-4.21236e-05	
115	1.170000e+00	5.400000e-01	1.800000e+00	-9.77859e-05	
116	1.170000e+00	5.400000e-01	1.800000e+00	-8.18228e-05	
117	1.170000e+00	5.400000e-01	1.800000e+00	-1.68908e-04	
118	1.170000e+00	5.400000e-01	1.800000e+00	-1.64021e-04	
119	1.170000e+00	5.400000e-01	1.800000e+00	-1.30804e-04	
120	1.170000e+00	5.400000e-01	1.800000e+00	-1.29219e-04	
121	1.170000e+00	5.400000e-01	1.800000e+00	-1.29124e-04	
122	1.170000e+00	5.399999e-01	1.800000e+00	-1.34489e-04	
123	1.170000e+00	5.399999e-01	1.800000e+00	-1.42533e-04	
124	1.170000e+00	5.399999e-01	1.800000e+00	-1.68810e-04	
125	1.170000e+00	5.399999e-01	1.800000e+00	-1.87701e-04	
126	1.170000e+00	5.399999e-01	1.800000e+00	4.842415e-06	
127	1.170000e+00	5.399999e-01	1.800000e+00	-1.36980e-04	
128	1.170000e+00	5.399999e-01	1.800000e+00	-9.58524e-05	
129	1.170000e+00	5.399999e-01	1.800000e+00	-3.93209e-05	
130	1.170000e+00	5.399999e-01	1.800000e+00	-8.29129e-06	
131	1.170000e+00	5.399999e-01	1.800000e+00	1.770684e-06	
132	1.170000e+00	5.399999e-01	1.800000e+00	-3.06218e-06	
133	1.170000e+00	5.399999e-01	1.800000e+00	5.582192e-06	
134	1.170000e+00	5.399999e-01	1.800000e+00	-2.76889e-06	
135	1.170000e+00	5.399999e-01	1.800000e+00	9.379360e-06	
136	1.170000e+00	5.399999e-01	1.800000e+00	-6.78601e-06	
137	1.170000e+00	5.399999e-01	1.800000e+00	6.272089e-06	
138	1.170000e+00	5.399999e-01	1.800000e+00	-8.93587e-06	
139	1.170000e+00	5.399999e-01	1.800000e+00	6.894377e-06	
140	1.170000e+00	5.399999e-01	1.800000e+00	-7.68638e-06	
141	1.170000e+00	5.399999e-01	1.800000e+00	7.481540e-06	
142	1.170000e+00	5.399999e-01	1.800000e+00	-7.52496e-06	
143	1.170000e+00	5.399999e-01	1.800000e+00	7.527060e-06	
144	1.170000e+00	5.399999e-01	1.800000e+00	-7.52811e-06	
145	1.170000e+00	5.399999e-01	1.800000e+00	7.526775e-06	
146	1.170000e+00	5.399998e-01	1.800000e+00	-7.52990e-06	
147	1.170000e+00	5.399997e-01	1.800000e+00	7.528620e-06	
148	1.170000e+00	5.399994e-01	1.800000e+00	-7.52940e-06	
149	1.170000e+00	5.399989e-01	1.800000e+00	7.529079e-06	
150	1.170000e+00	5.399978e-01	1.800000e+00	-7.52927e-06	
151	1.170000e+00	5.399957e-01	1.800000e+00	7.529194e-06	
152	1.170000e+00	5.399915e-01	1.800000e+00	-7.52924e-06	
153	1.170001e+00	5.399831e-01	1.800000e+00	7.529223e-06	
154	1.170002e+00	5.399662e-01	1.800000e+00	-7.52923e-06	
155	1.170004e+00	5.399325e-01	1.800000e+00	7.529230e-06	
156	1.170007e+00	5.398652e-01	1.800000e+00	-7.52923e-06	
157	1.170015e+00	5.397304e-01	1.800000e+00	7.529232e-06	
158	1.170030e+00	5.394608e-01	1.800000e+00	-7.52923e-06	
159	1.170060e+00	5.389218e-01	1.800000e+00	7.529232e-06	
160	1.170120e+00	5.378436e-01	1.800000e+00	-7.52923e-06	
161	1.170240e+00	5.356872e-01	1.800000e+00	7.529232e-06	
162	1.170479e+00	5.313746e-01	1.800000e+00	-7.52923e-06	
163	1.170958e+00	5.227492e-01	1.800000e+00	7.529232e-06	
164	1.171917e+00	5.054984e-01	1.800000e+00	-7.52923e-06	
165	1.173834e+00	4.709969e-01	1.800000e+00	7.529232e-06	
166	1.177667e+00	4.019940e-01	1.800000e+00	-7.52923e-06	
167	1.185334e+00	2.639880e-01	1.800000e+00	7.529232e-06	
168	1.200000e+00	0.000000e+00	1.800000e+00	-7.52923e-06	
169	1.201533e+00	0.000000e+00	1.800000e+00	-3.98772e-16	
170	1.204600e+00	0.000000e+00	1.800000e+00	3.988468e-16	

Index   time            data            en              m.x1.x1.x1.xsc1 
--------------------------------------------------------------------------------
171	1.210734e+00	0.000000e+00	1.800000e+00	-3.98655e-16	
172	1.223001e+00	0.000000e+00	1.800000e+00	3.987495e-16	
173	1.247535e+00	0.000000e+00	1.800000e+00	-3.98655e-16	
174	1.296604e+00	0.000000e+00	1.800000e+00	3.987495e-16	
175	1.394742e+00	0.000000e+00	1.800000e+00	-3.98655e-16	
176	1.494742e+00	0.000000e+00	1.800000e+00	3.987495e-16	
177	1.594742e+00	0.000000e+00	1.800000e+00	-3.98655e-16	
178	1.694742e+00	0.000000e+00	1.800000e+00	3.987495e-16	
179	1.794742e+00	0.000000e+00	1.800000e+00	-3.98655e-16	
180	1.894742e+00	0.000000e+00	1.800000e+00	3.987495e-16	
181	1.994742e+00	0.000000e+00	1.800000e+00	-3.98655e-16	
182	2.000000e+00	0.000000e+00	1.800000e+00	3.987495e-16	
183	2.010000e+00	1.800000e-01	1.800000e+00	4.722640e-20	
184	2.030000e+00	5.400000e-01	1.800000e+00	4.722612e-20	
185	2.070000e+00	1.260000e+00	1.800000e+00	4.722640e-20	
186	2.070000e+00	1.260000e+00	1.800000e+00	5.808939e-20	
187	2.070000e+00	1.260000e+00	1.800000e+00	2.566411e-04	
188	2.070000e+00	1.260000e+00	1.800000e+00	1.846487e-04	
189	2.070000e+00	1.260000e+00	1.800000e+00	1.406162e-04	
190	2.070000e+00	1.260000e+00	1.800000e+00	9.602571e-05	
191	2.070000e+00	1.260000e+00	1.800000e+00	7.194113e-05	
192	2.070000e+00	1.260000e+00	1.800000e+00	4.758876e-05	
193	2.070000e+00	1.260000e+00	1.800000e+00	1.389470e-05	
194	2.070000e+00	1.260000e+00	1.800000e+00	-5.92477e-06	
195	2.070000e+00	1.260000e+00	1.800000e+00	-6.57611e-06	
196	2.070000e+00	1.260000e+00	1.800000e+00	3.500177e-05	
197	2.070000e+00	1.260000e+00	1.800000e+00	2.122159e-05	
198	2.070000e+00	1.260000e+00	1.800000e+00	3.984266e-05	
199	2.070000e+00	1.260000e+00	1.800000e+00	1.917226e-05	
200	2.070000e+00	1.260000e+00	1.800000e+00	2.927129e-05	
201	2.070000e+00	1.260000e+00	1.800000e+00	-5.67835e-06	
202	2.070000e+00	1.260000e+00	1.800000e+00	1.215168e-05	
203	2.070000e+00	1.260000e+00	1.800000e+00	-6.83921e-06	
204	2.070000e+00	1.260000e+00	1.800000e+00	-7.97558e-09	
205	2.070000e+00	1.260000e+00	1.800000e+00	8.912375e-07	
206	2.070000e+00	1.260000e+00	1.800000e+00	4.281890e-07	
207	2.070000e+00	1.260000e+00	1.800000e+00	1.093392e-07	
208	2.070000e+00	1.260000e+00	1.800000e+00	4.483930e-08	
209	2.070000e+00	1.260000e+00	1.800000e+00	5.295966e-08	
210	2.070000e+00	1.260000e+00	1.800000e+00	3.037191e-09	
211	2.070000e+00	1.260000e+00	1.800000e+00	3.445132e-08	
212	2.070000e+00	1.260000e+00	1.800000e+00	-4.40844e-09	
213	2.070000e+00	1.260000e+00	1.800000e+00	3.447612e-08	
214	2.070000e+00	1.260000e+00	1.800000e+00	-5.01307e-09	
215	2.070000e+00	1.260000e+00	1.800000e+00	3.476500e-08	
216	2.070000e+00	1.260000e+00	1.800000e+00	-5.15417e-09	
217	2.070000e+00	1.260000e+00	1.800000e+00	3.483477e-08	
218	2.070000e+00	1.260000e+00	1.800000e+00	-5.18888e-09	
219	2.070000e+00	1.260001e+00	1.800000e+00	3.485204e-08	
220	2.070000e+00	1.260002e+00	1.800000e+00	-5.19750e-09	
221	2.070000e+00	1.260004e+00	1.800000e+00	3.485635e-08	
222	2.070000e+00	1.260007e+00	1.800000e+00	-5.19965e-09	
223	2.070001e+00	1.260014e+00	1.800000e+00	3.485743e-08	
224	2.070002e+00	1.260028e+00	1.800000e+00	-5.20019e-09	
225	2.070003e+00	1.260055e+00	1.800000e+00	3.485770e-08	
226	2.070006e+00	1.260111e+00	1.800000e+00	-5.20032e-09	
227	2.070012e+00	1.260221e+00	1.800000e+00	3.485777e-08	
228	2.070025e+00	1.260442e+00	1.800000e+00	-5.20036e-09	

Index   time            data            en              m.x1.x1.x1.xsc1 
--------------------------------------------------------------------------------
229	2.070049e+00	1.260884e+00	1.800000e+00	3.485778e-08	
230	2.070098e+00	1.261768e+00	1.800000e+00	-5.20037e-09	
231	2.070196e+00	1.263537e+00	1.800000e+00	3.485779e-08	
232	2.070393e+00	1.267073e+00	1.800000e+00	-5.20037e-09	
233	2.070786e+00	1.274146e+00	1.800000e+00	3.485779e-08	
234	2.071572e+00	1.288292e+00	1.800000e+00	-5.20037e-09	
235	2.073144e+00	1.316583e+00	1.800000e+00	3.485779e-08	
236	2.076287e+00	1.373166e+00	1.800000e+00	-5.20037e-09	
237	2.082574e+00	1.486332e+00	1.800000e+00	3.485779e-08	
238	2.095148e+00	1.712665e+00	1.800000e+00	-5.20037e-09	
239	2.100000e+00	1.800000e+00	1.800000e+00	3.485779e-08	
240	2.102515e+00	1.800000e+00	1.800000e+00	1.482871e-08	
241	2.107544e+00	1.800000e+00	1.800000e+00	1.482871e-08	
242	2.117604e+00	1.800000e+00	1.800000e+00	1.482871e-08	
243	2.137722e+00	1.800000e+00	1.800000e+00	1.482871e-08	
244	2.177959e+00	1.800000e+00	1.800000e+00	1.482871e-08	
245	2.258433e+00	1.800000e+00	1.800000e+00	1.482871e-08	
246	2.358433e+00	1.800000e+00	1.800000e+00	1.482871e-08	
247	2.458433e+00	1.800000e+00	1.800000e+00	1.482871e-08	
248	2.558433e+00	1.800000e+00	1.800000e+00	1.482871e-08	
249	2.658433e+00	1.800000e+00	1.800000e+00	1.482871e-08	
250	2.758433e+00	1.800000e+00	1.800000e+00	1.482871e-08	
251	2.858433e+00	1.800000e+00	1.800000e+00	1.482871e-08	
252	2.958433e+00	1.800000e+00	1.800000e+00	1.482871e-08	
253	3.058433e+00	1.800000e+00	1.800000e+00	1.482871e-08	
254	3.100000e+00	1.800000e+00	1.800000e+00	1.482871e-08	
255	3.110000e+00	1.620000e+00	1.800000e+00	1.482871e-08	
256	3.130000e+00	1.260000e+00	1.800000e+00	1.482871e-08	
257	3.170000e+00	5.400000e-01	1.800000e+00	1.482871e-08	
258	3.170000e+00	5.400000e-01	1.800000e+00	1.482871e-08	
259	3.170000e+00	5.400000e-01	1.800000e+00	-1.96903e-06	
260	3.170000e+00	5.400000e-01	1.800000e+00	-2.55270e-06	
261	3.170000e+00	5.400000e-01	1.800000e+00	-8.90972e-06	
262	3.170000e+00	5.400000e-01	1.800000e+00	-2.83728e-05	
263	3.170000e+00	5.400000e-01	1.800000e+00	-4.21234e-05	
264	3.170000e+00	5.400000e-01	1.800000e+00	-9.77858e-05	
265	3.170000e+00	5.400000e-01	1.800000e+00	-8.18228e-05	
266	3.170000e+00	5.400000e-01	1.800000e+00	-1.68906e-04	
267	3.170000e+00	5.400000e-01	1.800000e+00	-1.64023e-04	
268	3.170000e+00	5.400000e-01	1.800000e+00	-1.30804e-04	
269	3.170000e+00	5.400000e-01	1.800000e+00	-1.29221e-04	
270	3.170000e+00	5.400000e-01	1.800000e+00	-1.29121e-04	
271	3.170000e+00	5.399999e-01	1.800000e+00	-1.34491e-04	
272	3.170000e+00	5.399999e-01	1.800000e+00	-1.42531e-04	
273	3.170000e+00	5.399999e-01	1.800000e+00	-1.68811e-04	
274	3.170000e+00	5.399999e-01	1.800000e+00	-1.87700e-04	
275	3.170000e+00	5.399999e-01	1.800000e+00	4.839078e-06	
276	3.170000e+00	5.399999e-01	1.800000e+00	-1.36980e-04	
277	3.170000e+00	5.399999e-01	1.800000e+00	-9.58527e-05	
278	3.170000e+00	5.399999e-01	1.800000e+00	-3.93212e-05	
279	3.170000e+00	5.399999e-01	1.800000e+00	-8.29142e-06	
280	3.170000e+00	5.399999e-01	1.800000e+00	1.770655e-06	
281	3.170000e+00	5.399999e-01	1.800000e+00	-3.06219e-06	
282	3.170000e+00	5.399999e-01	1.800000e+00	5.582166e-06	
283	3.170000e+00	5.399999e-01	1.800000e+00	-2.76890e-06	
284	3.170000e+00	5.399999e-01	1.800000e+00	9.379419e-06	
285	3.170000e+00	5.399999e-01	1.800000e+00	-6.78592e-06	
286	3.170000e+00	5.399999e-01	1.800000e+00	6.272128e-06	

Index   time            data            en              m.x1.x1.x1.xsc1 
--------------------------------------------------------------------------------
287	3.170000e+00	5.399999e-01	1.800000e+00	-8.93588e-06	
288	3.170000e+00	5.399999e-01	1.800000e+00	6.894357e-06	
289	3.170000e+00	5.399999e-01	1.800000e+00	-7.68637e-06	
290	3.170000e+00	5.399999e-01	1.800000e+00	7.481528e-06	
291	3.170000e+00	5.399999e-01	1.800000e+00	-7.52495e-06	
292	3.170000e+00	5.399999e-01	1.800000e+00	7.527050e-06	
293	3.170000e+00	5.399999e-01	1.800000e+00	-7.52810e-06	
294	3.170000e+00	5.399999e-01	1.800000e+00	7.526765e-06	
295	3.170000e+00	5.399998e-01	1.800000e+00	-7.52989e-06	
296	3.170000e+00	5.399997e-01	1.800000e+00	7.528610e-06	
297	3.170000e+00	5.399994e-01	1.800000e+00	-7.52939e-06	
298	3.170000e+00	5.399989e-01	1.800000e+00	7.529070e-06	
299	3.170000e+00	5.399978e-01	1.800000e+00	-7.52926e-06	
300	3.170000e+00	5.399957e-01	1.800000e+00	7.529184e-06	
301	3.170000e+00	5.399915e-01	1.800000e+00	-7.52923e-06	
302	3.170001e+00	5.399831e-01	1.800000e+00	7.529213e-06	
303	3.170002e+00	5.399662e-01	1.800000e+00	-7.52923e-06	
304	3.170004e+00	5.399325e-01	1.800000e+00	7.529220e-06	
305	3.170007e+00	5.398652e-01	1.800000e+00	-7.52922e-06	
306	3.170015e+00	5.397304e-01	1.800000e+00	7.529222e-06	
307	3.170030e+00	5.394609e-01	1.800000e+00	-7.52922e-06	
308	3.170060e+00	5.389218e-01	1.800000e+00	7.529222e-06	
309	3.170120e+00	5.378436e-01	1.800000e+00	-7.52922e-06	
310	3.170240e+00	5.356873e-01	1.800000e+00	7.529223e-06	
311	3.170479e+00	5.313747e-01	1.800000e+00	-7.52922e-06	
312	3.170958e+00	5.227495e-01	1.800000e+00	7.529223e-06	
313	3.171917e+00	5.054992e-01	1.800000e+00	-7.52922e-06	
314	3.173833e+00	4.709984e-01	1.800000e+00	7.529223e-06	
315	3.177667e+00	4.019969e-01	1.800000e+00	-7.52922e-06	
316	3.185334e+00	2.639938e-01	1.800000e+00	7.529223e-06	
317	3.200000e+00	0.000000e+00	1.800000e+00	-7.52922e-06	
318	3.201533e+00	0.000000e+00	1.800000e+00	-3.98773e-16	
319	3.204600e+00	0.000000e+00	1.800000e+00	3.988479e-16	
320	3.210734e+00	0.000000e+00	1.800000e+00	-3.98656e-16	
321	3.223001e+00	0.000000e+00	1.800000e+00	3.987506e-16	
322	3.247534e+00	0.000000e+00	1.800000e+00	-3.98656e-16	
323	3.296602e+00	0.000000e+00	1.800000e+00	3.987506e-16	
324	3.394738e+00	0.000000e+00	1.800000e+00	-3.98656e-16	
325	3.494738e+00	0.000000e+00	1.800000e+00	3.987506e-16	
